T5264 000:008.781   SEGGER J-Link V7.82 Log File
T5264 000:008.988   DLL Compiled: Oct 13 2022 13:32:51
T5264 000:009.000   Logging started @ 2023-05-22 11:01
T5264 000:009.011 - 9.017ms
T5264 000:009.033 JLINK_SetWarnOutHandler(...)
T5264 000:009.047 - 0.019ms
T5264 000:009.060 JLINK_OpenEx(...)
T5264 000:011.721   Firmware: J-Link V9 compiled May  7 2021 16:26:12
T5264 000:012.346   Firmware: J-Link V9 compiled May  7 2021 16:26:12
T5264 000:012.602   Decompressing FW timestamp took 176 us
T5264 000:021.745   Hardware: V9.70
T5264 000:021.788   S/N: 63728769
T5264 000:021.803   OEM: SEGGER
T5264 000:021.818   Feature(s): GDB, RDI, FlashBP, FlashDL, JFlash
T5264 000:024.340   TELNET listener socket opened on port 19021
T5264 000:024.491   WEBSRV WEBSRV_Init(): Starting webserver thread(s)
T5264 000:024.860   WEBSRV Webserver running on local port 19080
T5264 000:043.232 - 34.203ms returns "O.K."
T5264 000:043.303 JLINK_GetEmuCaps()
T5264 000:043.314 - 0.016ms returns 0xB9FF7BBF
T5264 000:043.330 JLINK_TIF_GetAvailable(...)
T5264 000:043.807 - 0.492ms
T5264 000:043.835 JLINK_SetErrorOutHandler(...)
T5264 000:043.844 - 0.013ms
T5264 000:043.873 JLINK_ExecCommand("ProjectFile = "D:\data bank\NOTES\RA6M5\ebf_fsp_ra6m5_code-master\EBF_Workspace_Keil\06_Template\JLinkSettings.ini"", ...). 
T5264 000:066.585   Device "CORTEX-M33" selected.
T5264 000:067.216 - 23.355ms returns 0x00
T5264 000:072.104 JLINK_ExecCommand("Device = R7FA6M5BH", ...). 
T5264 000:083.137   Device "R7FA6M5BH" selected.
T5264 000:083.677 - 11.539ms returns 0x00
T5264 000:083.705 JLINK_ExecCommand("DisableConnectionTimeout", ...). 
T5264 000:083.718 - 0.006ms returns 0x01
T5264 000:083.728 JLINK_GetHardwareVersion()
T5264 000:083.737 - 0.013ms returns 97000
T5264 000:083.755 JLINK_GetDLLVersion()
T5264 000:083.764 - 0.012ms returns 78200
T5264 000:083.773 JLINK_GetOEMString(...)
T5264 000:083.783 JLINK_GetFirmwareString(...)
T5264 000:083.791 - 0.012ms
T5264 000:098.256 JLINK_GetDLLVersion()
T5264 000:098.295 - 0.045ms returns 78200
T5264 000:098.307 JLINK_GetCompileDateTime()
T5264 000:098.318 - 0.015ms
T5264 000:103.983 JLINK_GetFirmwareString(...)
T5264 000:104.026 - 0.049ms
T5264 000:110.030 JLINK_GetHardwareVersion()
T5264 000:110.075 - 0.050ms returns 97000
T5264 000:115.066 JLINK_GetSN()
T5264 000:115.112 - 0.053ms returns 63728769
T5264 000:121.229 JLINK_GetOEMString(...)
T5264 000:133.520 JLINK_TIF_Select(JLINKARM_TIF_SWD)
T5264 000:135.517 - 2.028ms returns 0x00
T5264 000:135.563 JLINK_HasError()
T5264 000:135.598 JLINK_SetSpeed(5000)
T5264 000:136.022 - 0.449ms
T5264 000:136.062 JLINK_GetId()
T5264 000:142.588   ConfigTargetSettings() start
T5264 000:142.643    J-Link Script File: Executing ConfigTargetSettings()
T5264 000:147.579   Configuring FlashDLNoRMWThreshold=0x200 in order to make sure that option bytes programming is done via read-modify-write
T5264 000:181.335   ConfigTargetSettings() end
T5264 000:186.995   InitTarget() start
T5264 000:187.044    J-Link Script File: Executing InitTarget()
T5264 000:191.680   Determining TrustZone configuration...
T5264 000:302.484     Secure Debug: Enabled (SSD)
T5264 000:309.269   Determining currently configured transfer type by reading the AHB-AP CSW register.
T5264 000:318.097     --> Correct transfer type configured. Done.
T5264 000:326.301   InitTarget() end
T5264 000:336.731   Found SW-DP with ID 0x6BA02477
T5264 000:345.937   DPIDR: 0x6BA02477
T5264 000:352.244   CoreSight SoC-400 or earlier
T5264 000:358.087   Scanning AP map to find all available APs
T5264 000:365.370   AP[2]: Stopped AP scan as end of AP map has been reached
T5264 000:370.619   AP[0]: AHB-AP (IDR: 0x84770001)
T5264 000:375.294   AP[1]: APB-AP (IDR: 0x54770002)
T5264 000:379.834   Iterating through AP map to find AHB-AP to use
T5264 000:386.867   AP[0]: Core found
T5264 000:393.691   AP[0]: AHB-AP ROM base: 0xE00FE000
T5264 000:400.188   CPUID register: 0x410FD214. Implementer code: 0x41 (ARM)
T5264 000:411.154   Feature set: Mainline
T5264 000:416.979   Found Cortex-M33 r0p4, Little endian.
T5264 000:418.293   -- Max. mem block: 0x00010C20
T5264 000:419.172   CPU_ReadMem(4 bytes @ 0xE000EDF0)
T5264 000:419.692   CPU_WriteMem(4 bytes @ 0xE000EDF0)
T5264 000:420.143   CPU_ReadMem(4 bytes @ 0xE0002000)
T5264 000:425.914   FPUnit: 8 code (BP) slots and 0 literal slots
T5264 000:425.970   CPU_ReadMem(4 bytes @ 0xE000EDFC)
T5264 000:426.535   CPU_WriteMem(4 bytes @ 0xE000EDFC)
T5264 000:427.028   CPU_ReadMem(4 bytes @ 0xE0001000)
T5264 000:427.518   CPU_ReadMem(4 bytes @ 0xE0001000)
T5264 000:428.015   CPU_ReadMem(4 bytes @ 0xE0001028)
T5264 000:428.499   CPU_ReadMem(4 bytes @ 0xE0001038)
T5264 000:429.012   CPU_ReadMem(4 bytes @ 0xE0001048)
T5264 000:429.532   CPU_ReadMem(4 bytes @ 0xE0001058)
T5264 000:430.035   CPU_WriteMem(4 bytes @ 0xE0001000)
T5264 000:430.705   CPU_ReadMem(4 bytes @ 0xE000ED88)
T5264 000:431.325   CPU_WriteMem(4 bytes @ 0xE000ED88)
T5264 000:431.987   CPU_ReadMem(4 bytes @ 0xE000ED88)
T5264 000:432.745   CPU_WriteMem(4 bytes @ 0xE000ED88)
T5264 000:433.440   CPU_ReadMem(4 bytes @ 0xE000EFB8)
T5264 000:438.762   Security extension: implemented
T5264 000:444.575   Secure debug: enabled
T5264 000:451.346   CoreSight components:
T5264 000:457.499   ROMTbl[0] @ E00FE000
T5264 000:457.561   CPU_ReadMem(64 bytes @ 0xE00FE000)
T5264 000:458.425   CPU_ReadMem(32 bytes @ 0xE0044FE0)
T5264 000:459.137   CPU_ReadMem(4 bytes @ 0xE0044FBC)
T5264 000:459.687   CPU_ReadMem(4 bytes @ 0xE0044FCC)
T5264 000:466.650   [0][0]: E0044000 CID B105900D PID 005BB906 DEVARCH 00000000 DEVTYPE 14 CTI (?)
T5264 000:466.711   CPU_ReadMem(32 bytes @ 0xE0047FE0)
T5264 000:467.421   CPU_ReadMem(4 bytes @ 0xE0047FBC)
T5264 000:468.043   CPU_ReadMem(4 bytes @ 0xE0047FCC)
T5264 000:474.184   [0][1]: E0047000 CID B105900D PID 003BB908 DEVARCH 00000000 DEVTYPE 12 CSTF
T5264 000:474.244   CPU_ReadMem(32 bytes @ 0xE0048FE0)
T5264 000:474.984   CPU_ReadMem(4 bytes @ 0xE0048FBC)
T5264 000:475.535   CPU_ReadMem(4 bytes @ 0xE0048FCC)
T5264 000:481.982   [0][2]: E0048000 CID B105900D PID 001BB961 DEVARCH 00000000 DEVTYPE 21 ETB
T5264 000:482.176   CPU_ReadMem(32 bytes @ 0xE0049FE0)
T5264 000:491.448   [0][3]: E0049000 CID B105F00D PID 001BB101 TSG
T5264 000:491.503   CPU_ReadMem(32 bytes @ 0xE0040FE0)
T5264 000:492.178   CPU_ReadMem(4 bytes @ 0xE0040FBC)
T5264 000:492.850   CPU_ReadMem(4 bytes @ 0xE0040FCC)
T5264 000:498.063   [0][4]: E0040000 CID B105900D PID 000BBD21 DEVARCH 00000000 DEVTYPE 11 TPIU
T5264 000:498.121   CPU_ReadMem(32 bytes @ 0xE00FFFE0)
T5264 000:504.941   [0][5]: E00FF000 CID B105100D PID 000BB4C9 ROM Table
T5264 000:510.566   ROMTbl[1] @ E00FF000
T5264 000:510.619   CPU_ReadMem(64 bytes @ 0xE00FF000)
T5264 000:511.437   CPU_ReadMem(32 bytes @ 0xE000EFE0)
T5264 000:512.173   CPU_ReadMem(4 bytes @ 0xE000EFBC)
T5264 000:512.862   CPU_ReadMem(4 bytes @ 0xE000EFCC)
T5264 000:519.495   [1][0]: E000E000 CID B105900D PID 000BBD21 DEVARCH 47702A04 DEVTYPE 00 Cortex-M33
T5264 000:519.557   CPU_ReadMem(32 bytes @ 0xE0001FE0)
T5264 000:520.456   CPU_ReadMem(4 bytes @ 0xE0001FBC)
T5264 000:521.054   CPU_ReadMem(4 bytes @ 0xE0001FCC)
T5264 000:528.404   [1][1]: E0001000 CID B105900D PID 000BBD21 DEVARCH 47701A02 DEVTYPE 00 DWT
T5264 000:528.470   CPU_ReadMem(32 bytes @ 0xE0002FE0)
T5264 000:529.169   CPU_ReadMem(4 bytes @ 0xE0002FBC)
T5264 000:529.865   CPU_ReadMem(4 bytes @ 0xE0002FCC)
T5264 000:536.863   [1][2]: E0002000 CID B105900D PID 000BBD21 DEVARCH 47701A03 DEVTYPE 00 FPB
T5264 000:536.925   CPU_ReadMem(32 bytes @ 0xE0000FE0)
T5264 000:537.760   CPU_ReadMem(4 bytes @ 0xE0000FBC)
T5264 000:538.428   CPU_ReadMem(4 bytes @ 0xE0000FCC)
T5264 000:544.751   [1][3]: E0000000 CID B105900D PID 000BBD21 DEVARCH 47701A01 DEVTYPE 43 ITM
T5264 000:544.803   CPU_ReadMem(32 bytes @ 0xE0041FE0)
T5264 000:545.421   CPU_ReadMem(4 bytes @ 0xE0041FBC)
T5264 000:546.186   CPU_ReadMem(4 bytes @ 0xE0041FCC)
T5264 000:552.712   [1][5]: E0041000 CID B105900D PID 002BBD21 DEVARCH 47724A13 DEVTYPE 13 ETM
T5264 000:552.782   CPU_ReadMem(32 bytes @ 0xE0042FE0)
T5264 000:553.576   CPU_ReadMem(4 bytes @ 0xE0042FBC)
T5264 000:554.173   CPU_ReadMem(4 bytes @ 0xE0042FCC)
T5264 000:561.962   [1][6]: E0042000 CID B105900D PID 000BBD21 DEVARCH 47701A14 DEVTYPE 14 CSS600-CTI
T5264 000:562.790 - 426.765ms returns 0x6BA02477
T5264 000:562.851 JLINK_GetDLLVersion()
T5264 000:562.861 - 0.014ms returns 78200
T5264 000:562.874 JLINK_CORE_GetFound()
T5264 000:562.883 - 0.014ms returns 0xE0200FF
T5264 000:562.896 JLINK_GetDebugInfo(0x100 = JLINKARM_ROM_TABLE_ADDR_INDEX)
T5264 000:562.923   Value=0xE00FE000
T5264 000:562.938 - 0.048ms returns 0
T5264 000:569.454 JLINK_GetDebugInfo(0x100 = JLINKARM_ROM_TABLE_ADDR_INDEX)
T5264 000:569.501   Value=0xE00FE000
T5264 000:569.513 - 0.064ms returns 0
T5264 000:569.523 JLINK_GetDebugInfo(0x101 = JLINKARM_DEBUG_INFO_ETM_ADDR_INDEX)
T5264 000:569.532   Value=0xE0041000
T5264 000:569.544 - 0.024ms returns 0
T5264 000:569.565 JLINK_ReadMemEx(0xE0041FD0, 0x20 Bytes, Flags = 0x02000004)
T5264 000:569.608   CPU_ReadMem(32 bytes @ 0xE0041FD0)
T5264 000:570.451   Data:  04 00 00 00 00 00 00 00 00 00 00 00 00 00 00 00 ...
T5264 000:570.483 - 0.922ms returns 32 (0x20)
T5264 000:570.498 JLINK_ReadMemU32(0xE0041FBC, 0x1 Items)
T5264 000:570.520   CPU_ReadMem(4 bytes @ 0xE0041FBC)
T5264 000:571.047   Data:  13 4A 72 47
T5264 000:571.067 - 0.573ms returns 1 (0x1)
T5264 000:571.080 JLINK_GetDebugInfo(0x102 = JLINKARM_DEBUG_INFO_MTB_ADDR_INDEX)
T5264 000:571.089   Value=0x00000000
T5264 000:571.101 - 0.025ms returns 0
T5264 000:571.110 JLINK_GetDebugInfo(0x103 = JLINKARM_DEBUG_INFO_TPIU_ADDR_INDEX)
T5264 000:571.119   Value=0xE0040000
T5264 000:571.133 - 0.027ms returns 0
T5264 000:571.145 JLINK_GetDebugInfo(0x104 = JLINKARM_DEBUG_INFO_ITM_ADDR_INDEX)
T5264 000:571.162   Value=0xE0000000
T5264 000:571.177 - 0.036ms returns 0
T5264 000:571.187 JLINK_GetDebugInfo(0x105 = JLINKARM_DEBUG_INFO_DWT_ADDR_INDEX)
T5264 000:571.195   Value=0xE0001000
T5264 000:571.207 - 0.024ms returns 0
T5264 000:571.216 JLINK_GetDebugInfo(0x106 = JLINKARM_DEBUG_INFO_FPB_ADDR_INDEX)
T5264 000:571.225   Value=0xE0002000
T5264 000:571.236 - 0.024ms returns 0
T5264 000:571.246 JLINK_GetDebugInfo(0x107 = JLINKARM_DEBUG_INFO_NVIC_ADDR_INDEX)
T5264 000:571.254   Value=0xE000E000
T5264 000:571.266 - 0.024ms returns 0
T5264 000:571.275 JLINK_GetDebugInfo(0x10C = JLINKARM_DEBUG_INFO_DBG_ADDR_INDEX)
T5264 000:571.284   Value=0xE000EDF0
T5264 000:571.295 - 0.024ms returns 0
T5264 000:571.305 JLINK_GetDebugInfo(0x01 = Unknown)
T5264 000:571.322   Value=0x00000001
T5264 000:571.334 - 0.033ms returns 0
T5264 000:571.343 JLINK_ReadMemU32(0xE000ED00, 0x1 Items)
T5264 000:571.364   CPU_ReadMem(4 bytes @ 0xE000ED00)
T5264 000:571.895   Data:  14 D2 0F 41
T5264 000:571.924   Debug reg: CPUID
T5264 000:571.940 - 0.602ms returns 1 (0x1)
T5264 000:571.957 JLINK_GetDebugInfo(0x10F = JLINKARM_DEBUG_INFO_HAS_CORTEX_M_SECURITY_EXT_INDEX)
T5264 000:571.970   Value=0x00000001
T5264 000:571.984 - 0.031ms returns 0
T5264 000:571.995 JLINK_ReadMemU32(0xE000EFB8, 0x1 Items)
T5264 000:572.017   CPU_ReadMem(4 bytes @ 0xE000EFB8)
T5264 000:572.501   Data:  FF 00 00 00
T5264 000:572.522 - 0.531ms returns 1 (0x1)
T5264 000:572.535 JLINK_ReadMemU32(0xE000EDF0, 0x1 Items)
T5264 000:572.552   CPU_ReadMem(4 bytes @ 0xE000EDF0)
T5264 000:573.019   Data:  01 00 10 01
T5264 000:573.048   Debug reg: DHCSR
T5264 000:573.061 - 0.531ms returns 1 (0x1)
T5264 000:573.077 JLINK_ReadMemU32(0xE000EE08, 0x1 Items)
T5264 000:573.097   CPU_ReadMem(4 bytes @ 0xE000EE08)
T5264 000:573.692   Data:  00 00 03 00
T5264 000:573.724   Debug reg: DSCSR
T5264 000:573.739 - 0.667ms returns 1 (0x1)
T5264 000:573.755 JLINK_HasError()
T5264 000:573.769 JLINK_SetResetType(JLINKARM_CM3_RESET_TYPE_NORMAL)
T5264 000:573.779 - 0.015ms returns JLINKARM_CM3_RESET_TYPE_NORMAL
T5264 000:573.791 JLINK_Reset()
T5264 000:573.825   CPU is running
T5264 000:573.843   CPU_WriteMem(4 bytes @ 0xE000EDF0)
T5264 000:574.426   CPU_ReadMem(4 bytes @ 0xE000ED44)
T5264 000:575.041   CPU_ReadMem(4 bytes @ 0xE000EE08)
T5264 000:575.716   CPU is running
T5264 000:575.756   CPU_WriteMem(4 bytes @ 0xE000EE08)
T5264 000:582.056   Reset: ARMv8M core with Security Extension enabled detected.
T5264 000:582.121   CPU is running
T5264 000:582.156   CPU_WriteMem(4 bytes @ 0xE000EDFC)
T5264 000:587.893   Reset: Halt core after reset via DEMCR.VC_CORERESET.
T5264 000:594.221   Reset: Reset device via AIRCR.SYSRESETREQ.
T5264 000:594.288   CPU is running
T5264 000:594.312   CPU_WriteMem(4 bytes @ 0xE000ED0C)
T5264 000:648.129   CPU_ReadMem(4 bytes @ 0xE000EDF0)
T5264 000:648.707   CPU_ReadMem(4 bytes @ 0xE000EDF0)
T5264 000:649.267   CPU is running
T5264 000:649.301   CPU_WriteMem(4 bytes @ 0xE000EDF0)
T5264 000:649.870   CPU is running
T5264 000:649.912   CPU_WriteMem(4 bytes @ 0xE000EDFC)
T5264 000:656.170   CPU_ReadMem(4 bytes @ 0xE000EDF0)
T5264 000:660.276   CPU_ReadMem(4 bytes @ 0xE000EE08)
T5264 000:660.977   CPU_WriteMem(4 bytes @ 0xE0002000)
T5264 000:661.707   CPU_ReadMem(4 bytes @ 0xE000EDFC)
T5264 000:662.282   CPU_ReadMem(4 bytes @ 0xE0001000)
T5264 000:662.857   CPU_ReadMem(4 bytes @ 0xE000EE08)
T5264 000:663.405 - 89.648ms
T5264 000:663.469 JLINK_Halt()
T5264 000:663.490 - 0.034ms returns 0x00
T5264 000:663.518 JLINK_ReadMemU32(0xE000EFB8, 0x1 Items)
T5264 000:663.560   CPU_ReadMem(4 bytes @ 0xE000EFB8)
T5264 000:664.190   Data:  FF 00 00 00
T5264 000:664.250 - 0.738ms returns 1 (0x1)
T5264 000:664.278 JLINK_ReadMemU32(0xE000EDF0, 0x1 Items)
T5264 000:664.315   CPU_ReadMem(4 bytes @ 0xE000EDF0)
T5264 000:664.932   Data:  03 00 13 00
T5264 000:664.969   Debug reg: DHCSR
T5264 000:664.989 - 0.718ms returns 1 (0x1)
T5264 000:665.021 JLINK_ReadMemU32(0xE000EDF0, 0x1 Items)
T5264 000:665.058   CPU_ReadMem(4 bytes @ 0xE000EDF0)
T5264 000:665.715   Data:  03 00 13 00
T5264 000:665.755   Debug reg: DHCSR
T5264 000:665.773 - 0.758ms returns 1 (0x1)
T5264 000:665.862 JLINK_WriteU32_64(0xE000EDF0, 0xA05F0003)
T5264 000:665.885   Debug reg: DHCSR
T5264 000:666.271   CPU_WriteMem(4 bytes @ 0xE000EDF0)
T5264 000:666.948 - 1.112ms returns 0 (0x00000000)
T5264 000:666.990 JLINK_WriteU32_64(0xE000EDFC, 0x01000000)
T5264 000:667.003   Debug reg: DEMCR
T5264 000:667.035   CPU_WriteMem(4 bytes @ 0xE000EDFC)
T5264 000:667.603 - 0.655ms returns 0 (0x00000000)
T5264 000:691.781 JLINK_GetHWStatus(...)
T5264 000:692.286 - 0.524ms returns 0
T5264 000:710.062 JLINK_GetNumBPUnits(Type = 0xFFFFFF00)
T5264 000:710.106 - 0.049ms returns 0x08
T5264 000:710.117 JLINK_GetNumBPUnits(Type = 0xF0)
T5264 000:710.127 - 0.013ms returns 0x2000
T5264 000:710.139 JLINK_GetNumWPUnits()
T5264 000:710.147 - 0.015ms returns 4
T5264 000:727.296 JLINK_GetSpeed()
T5264 000:727.340 - 0.049ms returns 4000
T5264 000:738.986 JLINK_ReadMemU32(0xE000E004, 0x1 Items)
T5264 000:739.049   CPU_ReadMem(4 bytes @ 0xE000E004)
T5264 000:739.711   Data:  03 00 00 00
T5264 000:739.747 - 0.766ms returns 1 (0x1)
T5264 000:739.764 JLINK_ReadMemU32(0xE000E004, 0x1 Items)
T5264 000:739.787   CPU_ReadMem(4 bytes @ 0xE000E004)
T5264 000:740.254   Data:  03 00 00 00
T5264 000:740.289 - 0.531ms returns 1 (0x1)
T5264 000:740.307 JLINK_WriteMemEx(0xE0001000, 0x0000001C Bytes, Flags = 0x02000004)
T5264 000:740.318   Data:  01 00 00 00 00 00 00 00 00 00 00 00 00 00 00 00 ...
T5264 000:740.352   CPU_WriteMem(28 bytes @ 0xE0001000)
T5264 000:741.004 - 0.722ms returns 0x1C
T5264 000:741.047 JLINK_Halt()
T5264 000:741.059 - 0.017ms returns 0x00
T5264 000:741.072 JLINK_IsHalted()
T5264 000:741.084 - 0.016ms returns TRUE
T5264 000:745.998 JLINK_WriteMem(0x20000000, 0xE68 Bytes, ...)
T5264 000:746.031   Data:  00 BE 0A E0 0D 78 2D 06 68 40 08 24 40 00 00 D3 ...
T5264 000:746.549   CPU_WriteMem(3688 bytes @ 0x20000000)
T5264 000:758.606 - 12.637ms returns 0xE68
T5264 000:758.691 JLINK_HasError()
T5264 000:758.707 JLINK_WriteReg(R0, 0x00000000)
T5264 000:758.741   CPU_ReadMem(4 bytes @ 0xE000EE08)
T5264 000:759.298 - 0.614ms returns 0
T5264 000:759.335 JLINK_WriteReg(R1, 0x016E3600)
T5264 000:759.357 - 0.028ms returns 0
T5264 000:759.485 JLINK_WriteReg(R2, 0x00000001)
T5264 000:759.505 - 0.025ms returns 0
T5264 000:759.518 JLINK_WriteReg(R3, 0x00000000)
T5264 000:759.532 - 0.021ms returns 0
T5264 000:759.546 JLINK_WriteReg(R4, 0x00000000)
T5264 000:759.558 - 0.018ms returns 0
T5264 000:759.571 JLINK_WriteReg(R5, 0x00000000)
T5264 000:759.583 - 0.017ms returns 0
T5264 000:759.595 JLINK_WriteReg(R6, 0x00000000)
T5264 000:759.607 - 0.017ms returns 0
T5264 000:759.618 JLINK_WriteReg(R7, 0x00000000)
T5264 000:759.630 - 0.016ms returns 0
T5264 000:759.641 JLINK_WriteReg(R8, 0x00000000)
T5264 000:759.663 - 0.028ms returns 0
T5264 000:759.677 JLINK_WriteReg(R9, 0x20000E64)
T5264 000:759.690 - 0.018ms returns 0
T5264 000:759.702 JLINK_WriteReg(R10, 0x00000000)
T5264 000:759.715 - 0.018ms returns 0
T5264 000:759.727 JLINK_WriteReg(R11, 0x00000000)
T5264 000:759.739 - 0.018ms returns 0
T5264 000:759.752 JLINK_WriteReg(R12, 0x00000000)
T5264 000:759.765 - 0.018ms returns 0
T5264 000:759.777 JLINK_WriteReg(R13 (SP), 0x20002000)
T5264 000:759.792 - 0.021ms returns 0
T5264 000:759.805 JLINK_WriteReg(R14, 0x20000001)
T5264 000:759.817 - 0.017ms returns 0
T5264 000:759.829 JLINK_WriteReg(R15 (PC), 0x20000020)
T5264 000:759.847 - 0.023ms returns 0
T5264 000:759.859 JLINK_WriteReg(XPSR, 0x01000000)
T5264 000:759.872 - 0.018ms returns 0
T5264 000:759.885 JLINK_WriteReg(MSP, 0x20002000)
T5264 000:759.897 - 0.018ms returns 0
T5264 000:759.910 JLINK_WriteReg(PSP, 0x20002000)
T5264 000:759.923 - 0.018ms returns 0
T5264 000:759.936 JLINK_WriteReg(CFBP, 0x00000000)
T5264 000:759.948 - 0.018ms returns 0
T5264 000:759.967 JLINK_SetBPEx(Addr = 0x20000000, Type = 0xFFFFFFF2)
T5264 000:759.990 - 0.030ms returns 0x00000001
T5264 000:760.014 JLINK_Go()
T5264 000:760.035   CPU_WriteMem(4 bytes @ 0xE0002000)
T5264 000:760.578   CPU_ReadMem(4 bytes @ 0xE0001000)
T5264 000:761.162   CPU_WriteMem(4 bytes @ 0xE0002008)
T5264 000:761.204   CPU_WriteMem(4 bytes @ 0xE000200C)
T5264 000:761.225   CPU_WriteMem(4 bytes @ 0xE0002010)
T5264 000:761.260   CPU_WriteMem(4 bytes @ 0xE0002014)
T5264 000:761.287   CPU_WriteMem(4 bytes @ 0xE0002018)
T5264 000:761.330   CPU_WriteMem(4 bytes @ 0xE000201C)
T5264 000:761.356   CPU_WriteMem(4 bytes @ 0xE0002020)
T5264 000:761.376   CPU_WriteMem(4 bytes @ 0xE0002024)
T5264 000:762.997   CPU_WriteMem(4 bytes @ 0xE0001004)
T5264 000:766.650 - 6.671ms
T5264 000:766.704 JLINK_IsHalted()
T5264 000:769.829 - 3.163ms returns TRUE
T5264 000:769.885 JLINK_ReadReg(R15 (PC))
T5264 000:769.909   CPU_ReadMem(4 bytes @ 0xE000EE08)
T5264 000:770.404 - 0.543ms returns 0x20000000
T5264 000:770.444 JLINK_ClrBPEx(BPHandle = 0x00000001)
T5264 000:770.459 - 0.020ms returns 0x00
T5264 000:770.471 JLINK_ReadReg(R0)
T5264 000:770.484 - 0.017ms returns 0x00000000
T5264 000:771.057 JLINK_HasError()
T5264 000:771.099 JLINK_WriteReg(R0, 0x00000000)
T5264 000:771.122 - 0.028ms returns 0
T5264 000:771.133 JLINK_WriteReg(R1, 0x00002000)
T5264 000:771.147 - 0.018ms returns 0
T5264 000:771.158 JLINK_WriteReg(R2, 0x000000FF)
T5264 000:771.170 - 0.017ms returns 0
T5264 000:771.181 JLINK_WriteReg(R3, 0x00000000)
T5264 000:771.193 - 0.016ms returns 0
T5264 000:771.203 JLINK_WriteReg(R4, 0x00000000)
T5264 000:771.213 - 0.014ms returns 0
T5264 000:771.222 JLINK_WriteReg(R5, 0x00000000)
T5264 000:771.232 - 0.013ms returns 0
T5264 000:771.242 JLINK_WriteReg(R6, 0x00000000)
T5264 000:771.251 - 0.013ms returns 0
T5264 000:771.261 JLINK_WriteReg(R7, 0x00000000)
T5264 000:771.270 - 0.013ms returns 0
T5264 000:771.280 JLINK_WriteReg(R8, 0x00000000)
T5264 000:771.290 - 0.014ms returns 0
T5264 000:771.299 JLINK_WriteReg(R9, 0x20000E64)
T5264 000:771.308 - 0.014ms returns 0
T5264 000:771.318 JLINK_WriteReg(R10, 0x00000000)
T5264 000:771.328 - 0.013ms returns 0
T5264 000:771.337 JLINK_WriteReg(R11, 0x00000000)
T5264 000:771.347 - 0.013ms returns 0
T5264 000:771.357 JLINK_WriteReg(R12, 0x00000000)
T5264 000:771.366 - 0.013ms returns 0
T5264 000:771.376 JLINK_WriteReg(R13 (SP), 0x20002000)
T5264 000:771.387 - 0.024ms returns 0
T5264 000:771.411 JLINK_WriteReg(R14, 0x20000001)
T5264 000:771.421 - 0.014ms returns 0
T5264 000:771.430 JLINK_WriteReg(R15 (PC), 0x20000680)
T5264 000:771.440 - 0.014ms returns 0
T5264 000:771.449 JLINK_WriteReg(XPSR, 0x01000000)
T5264 000:771.459 - 0.013ms returns 0
T5264 000:771.468 JLINK_WriteReg(MSP, 0x20002000)
T5264 000:771.478 - 0.013ms returns 0
T5264 000:771.487 JLINK_WriteReg(PSP, 0x20002000)
T5264 000:771.497 - 0.013ms returns 0
T5264 000:771.506 JLINK_WriteReg(CFBP, 0x00000000)
T5264 000:771.516 - 0.013ms returns 0
T5264 000:771.526 JLINK_SetBPEx(Addr = 0x20000000, Type = 0xFFFFFFF2)
T5264 000:771.537 - 0.015ms returns 0x00000002
T5264 000:771.546 JLINK_Go()
T5264 000:771.561   CPU_WriteMem(4 bytes @ 0xE0002000)
T5264 000:772.192   CPU_ReadMem(4 bytes @ 0xE0001000)
T5264 000:775.080 - 3.560ms
T5264 000:775.119 JLINK_IsHalted()
T5264 000:775.691 - 0.600ms returns FALSE
T5264 000:775.734 JLINK_HasError()
T5264 000:812.328 JLINK_IsHalted()
T5264 000:815.342 - 3.058ms returns TRUE
T5264 000:815.399 JLINK_ReadReg(R15 (PC))
T5264 000:815.424   CPU_ReadMem(4 bytes @ 0xE000EE08)
T5264 000:816.050 - 0.676ms returns 0x20000000
T5264 000:816.087 JLINK_ClrBPEx(BPHandle = 0x00000002)
T5264 000:816.104 - 0.021ms returns 0x00
T5264 000:816.114 JLINK_ReadReg(R0)
T5264 000:816.126 - 0.016ms returns 0x00000001
T5264 000:816.137 JLINK_HasError()
T5264 000:816.147 JLINK_WriteReg(R0, 0x00000000)
T5264 000:816.158 - 0.015ms returns 0
T5264 000:816.167 JLINK_WriteReg(R1, 0x00002000)
T5264 000:816.177 - 0.014ms returns 0
T5264 000:816.187 JLINK_WriteReg(R2, 0x000000FF)
T5264 000:816.196 - 0.013ms returns 0
T5264 000:816.206 JLINK_WriteReg(R3, 0x00000000)
T5264 000:816.216 - 0.013ms returns 0
T5264 000:816.225 JLINK_WriteReg(R4, 0x00000000)
T5264 000:816.235 - 0.013ms returns 0
T5264 000:816.244 JLINK_WriteReg(R5, 0x00000000)
T5264 000:816.254 - 0.013ms returns 0
T5264 000:816.263 JLINK_WriteReg(R6, 0x00000000)
T5264 000:816.273 - 0.013ms returns 0
T5264 000:816.282 JLINK_WriteReg(R7, 0x00000000)
T5264 000:816.292 - 0.013ms returns 0
T5264 000:816.301 JLINK_WriteReg(R8, 0x00000000)
T5264 000:816.311 - 0.013ms returns 0
T5264 000:816.320 JLINK_WriteReg(R9, 0x20000E64)
T5264 000:816.330 - 0.013ms returns 0
T5264 000:816.340 JLINK_WriteReg(R10, 0x00000000)
T5264 000:816.349 - 0.013ms returns 0
T5264 000:816.359 JLINK_WriteReg(R11, 0x00000000)
T5264 000:816.368 - 0.013ms returns 0
T5264 000:816.378 JLINK_WriteReg(R12, 0x00000000)
T5264 000:816.387 - 0.013ms returns 0
T5264 000:816.397 JLINK_WriteReg(R13 (SP), 0x20002000)
T5264 000:816.408 - 0.015ms returns 0
T5264 000:816.417 JLINK_WriteReg(R14, 0x20000001)
T5264 000:816.427 - 0.013ms returns 0
T5264 000:816.436 JLINK_WriteReg(R15 (PC), 0x20000A00)
T5264 000:816.447 - 0.014ms returns 0
T5264 000:816.456 JLINK_WriteReg(XPSR, 0x01000000)
T5264 000:816.466 - 0.013ms returns 0
T5264 000:816.475 JLINK_WriteReg(MSP, 0x20002000)
T5264 000:816.485 - 0.014ms returns 0
T5264 000:816.495 JLINK_WriteReg(PSP, 0x20002000)
T5264 000:816.504 - 0.013ms returns 0
T5264 000:816.514 JLINK_WriteReg(CFBP, 0x00000000)
T5264 000:816.526 - 0.017ms returns 0
T5264 000:816.537 JLINK_SetBPEx(Addr = 0x20000000, Type = 0xFFFFFFF2)
T5264 000:816.552 - 0.020ms returns 0x00000003
T5264 000:816.564 JLINK_Go()
T5264 000:816.584   CPU_WriteMem(4 bytes @ 0xE0002000)
T5264 000:817.190   CPU_ReadMem(4 bytes @ 0xE0001000)
T5264 000:820.245 - 3.712ms
T5264 000:820.292 JLINK_IsHalted()
T5264 000:820.829 - 0.558ms returns FALSE
T5264 000:820.868 JLINK_HasError()
T5264 000:822.560 JLINK_IsHalted()
T5264 000:823.148 - 0.610ms returns FALSE
T5264 000:823.181 JLINK_HasError()
T5264 000:824.548 JLINK_IsHalted()
T5264 000:825.158 - 0.641ms returns FALSE
T5264 000:825.206 JLINK_HasError()
T5264 000:826.564 JLINK_IsHalted()
T5264 000:827.176 - 0.647ms returns FALSE
T5264 000:827.227 JLINK_HasError()
T5264 000:828.555 JLINK_IsHalted()
T5264 000:829.191 - 0.675ms returns FALSE
T5264 000:829.245 JLINK_HasError()
T5264 000:830.550 JLINK_IsHalted()
T5264 000:831.368 - 0.876ms returns FALSE
T5264 000:831.448 JLINK_HasError()
T5264 000:832.551 JLINK_IsHalted()
T5264 000:833.155 - 0.634ms returns FALSE
T5264 000:833.200 JLINK_HasError()
T5264 000:834.604 JLINK_IsHalted()
T5264 000:835.304 - 0.732ms returns FALSE
T5264 000:835.353 JLINK_HasError()
T5264 000:836.579 JLINK_IsHalted()
T5264 000:837.232 - 0.698ms returns FALSE
T5264 000:837.297 JLINK_HasError()
T5264 000:838.594 JLINK_IsHalted()
T5264 000:839.136 - 0.575ms returns FALSE
T5264 000:839.184 JLINK_HasError()
T5264 000:840.585 JLINK_IsHalted()
T5264 000:841.159 - 0.612ms returns FALSE
T5264 000:841.217 JLINK_HasError()
T5264 000:842.577 JLINK_IsHalted()
T5264 000:843.149 - 0.597ms returns FALSE
T5264 000:843.189 JLINK_HasError()
T5264 000:844.581 JLINK_IsHalted()
T5264 000:845.288 - 0.737ms returns FALSE
T5264 000:845.331 JLINK_HasError()
T5264 000:846.583 JLINK_IsHalted()
T5264 000:847.163 - 0.604ms returns FALSE
T5264 000:847.200 JLINK_HasError()
T5264 000:848.579 JLINK_IsHalted()
T5264 000:849.148 - 0.594ms returns FALSE
T5264 000:849.189 JLINK_HasError()
T5264 000:852.577 JLINK_IsHalted()
T5264 000:853.165 - 0.611ms returns FALSE
T5264 000:853.202 JLINK_HasError()
T5264 000:854.579 JLINK_IsHalted()
T5264 000:855.162 - 0.612ms returns FALSE
T5264 000:855.208 JLINK_HasError()
T5264 000:856.589 JLINK_IsHalted()
T5264 000:857.180 - 0.625ms returns FALSE
T5264 000:857.230 JLINK_HasError()
T5264 000:861.586 JLINK_IsHalted()
T5264 000:864.624 - 3.062ms returns TRUE
T5264 000:864.659 JLINK_ReadReg(R15 (PC))
T5264 000:864.678   CPU_ReadMem(4 bytes @ 0xE000EE08)
T5264 000:865.283 - 0.647ms returns 0x20000000
T5264 000:865.319 JLINK_ClrBPEx(BPHandle = 0x00000003)
T5264 000:865.337 - 0.023ms returns 0x00
T5264 000:865.349 JLINK_ReadReg(R0)
T5264 000:865.363 - 0.018ms returns 0x00000000
T5264 000:866.290 JLINK_HasError()
T5264 000:866.329 JLINK_WriteReg(R0, 0x00002000)
T5264 000:866.355 - 0.031ms returns 0
T5264 000:866.367 JLINK_WriteReg(R1, 0x00002000)
T5264 000:866.379 - 0.017ms returns 0
T5264 000:866.390 JLINK_WriteReg(R2, 0x000000FF)
T5264 000:866.402 - 0.016ms returns 0
T5264 000:866.413 JLINK_WriteReg(R3, 0x00000000)
T5264 000:866.425 - 0.016ms returns 0
T5264 000:866.436 JLINK_WriteReg(R4, 0x00000000)
T5264 000:866.447 - 0.016ms returns 0
T5264 000:866.459 JLINK_WriteReg(R5, 0x00000000)
T5264 000:866.470 - 0.016ms returns 0
T5264 000:866.482 JLINK_WriteReg(R6, 0x00000000)
T5264 000:866.501 - 0.024ms returns 0
T5264 000:866.514 JLINK_WriteReg(R7, 0x00000000)
T5264 000:866.527 - 0.018ms returns 0
T5264 000:866.540 JLINK_WriteReg(R8, 0x00000000)
T5264 000:866.556 - 0.023ms returns 0
T5264 000:866.570 JLINK_WriteReg(R9, 0x20000E64)
T5264 000:866.726 - 0.169ms returns 0
T5264 000:866.747 JLINK_WriteReg(R10, 0x00000000)
T5264 000:866.761 - 0.019ms returns 0
T5264 000:866.774 JLINK_WriteReg(R11, 0x00000000)
T5264 000:866.788 - 0.019ms returns 0
T5264 000:866.800 JLINK_WriteReg(R12, 0x00000000)
T5264 000:866.813 - 0.018ms returns 0
T5264 000:866.826 JLINK_WriteReg(R13 (SP), 0x20002000)
T5264 000:866.842 - 0.021ms returns 0
T5264 000:866.854 JLINK_WriteReg(R14, 0x20000001)
T5264 000:866.865 - 0.016ms returns 0
T5264 000:866.877 JLINK_WriteReg(R15 (PC), 0x20000680)
T5264 000:866.888 - 0.016ms returns 0
T5264 000:866.900 JLINK_WriteReg(XPSR, 0x01000000)
T5264 000:866.911 - 0.016ms returns 0
T5264 000:866.922 JLINK_WriteReg(MSP, 0x20002000)
T5264 000:866.934 - 0.016ms returns 0
T5264 000:866.945 JLINK_WriteReg(PSP, 0x20002000)
T5264 000:866.956 - 0.016ms returns 0
T5264 000:866.968 JLINK_WriteReg(CFBP, 0x00000000)
T5264 000:866.979 - 0.016ms returns 0
T5264 000:866.991 JLINK_SetBPEx(Addr = 0x20000000, Type = 0xFFFFFFF2)
T5264 000:867.004 - 0.018ms returns 0x00000004
T5264 000:867.016 JLINK_Go()
T5264 000:867.034   CPU_WriteMem(4 bytes @ 0xE0002000)
T5264 000:867.600   CPU_ReadMem(4 bytes @ 0xE0001000)
T5264 000:870.466 - 3.487ms
T5264 000:870.518 JLINK_IsHalted()
T5264 000:871.026 - 0.544ms returns FALSE
T5264 000:871.091 JLINK_HasError()
T5264 000:872.588 JLINK_IsHalted()
T5264 000:875.807 - 3.264ms returns TRUE
T5264 000:875.865 JLINK_ReadReg(R15 (PC))
T5264 000:875.890   CPU_ReadMem(4 bytes @ 0xE000EE08)
T5264 000:876.418 - 0.577ms returns 0x20000000
T5264 000:876.458 JLINK_ClrBPEx(BPHandle = 0x00000004)
T5264 000:876.479 - 0.027ms returns 0x00
T5264 000:876.494 JLINK_ReadReg(R0)
T5264 000:876.509 - 0.021ms returns 0x00000001
T5264 000:876.524 JLINK_HasError()
T5264 000:876.537 JLINK_WriteReg(R0, 0x00002000)
T5264 000:876.554 - 0.024ms returns 0
T5264 000:876.569 JLINK_WriteReg(R1, 0x00002000)
T5264 000:876.583 - 0.019ms returns 0
T5264 000:876.596 JLINK_WriteReg(R2, 0x000000FF)
T5264 000:876.609 - 0.018ms returns 0
T5264 000:876.622 JLINK_WriteReg(R3, 0x00000000)
T5264 000:876.634 - 0.018ms returns 0
T5264 000:876.647 JLINK_WriteReg(R4, 0x00000000)
T5264 000:876.661 - 0.019ms returns 0
T5264 000:876.673 JLINK_WriteReg(R5, 0x00000000)
T5264 000:876.686 - 0.018ms returns 0
T5264 000:876.698 JLINK_WriteReg(R6, 0x00000000)
T5264 000:876.711 - 0.018ms returns 0
T5264 000:876.724 JLINK_WriteReg(R7, 0x00000000)
T5264 000:876.737 - 0.019ms returns 0
T5264 000:876.750 JLINK_WriteReg(R8, 0x00000000)
T5264 000:876.763 - 0.019ms returns 0
T5264 000:876.776 JLINK_WriteReg(R9, 0x20000E64)
T5264 000:876.790 - 0.018ms returns 0
T5264 000:876.801 JLINK_WriteReg(R10, 0x00000000)
T5264 000:876.815 - 0.019ms returns 0
T5264 000:876.828 JLINK_WriteReg(R11, 0x00000000)
T5264 000:876.842 - 0.020ms returns 0
T5264 000:876.855 JLINK_WriteReg(R12, 0x00000000)
T5264 000:876.868 - 0.018ms returns 0
T5264 000:876.881 JLINK_WriteReg(R13 (SP), 0x20002000)
T5264 000:876.897 - 0.022ms returns 0
T5264 000:876.911 JLINK_WriteReg(R14, 0x20000001)
T5264 000:876.923 - 0.018ms returns 0
T5264 000:876.936 JLINK_WriteReg(R15 (PC), 0x20000A00)
T5264 000:876.949 - 0.018ms returns 0
T5264 000:876.961 JLINK_WriteReg(XPSR, 0x01000000)
T5264 000:876.973 - 0.017ms returns 0
T5264 000:876.984 JLINK_WriteReg(MSP, 0x20002000)
T5264 000:876.997 - 0.017ms returns 0
T5264 000:877.008 JLINK_WriteReg(PSP, 0x20002000)
T5264 000:877.022 - 0.019ms returns 0
T5264 000:877.034 JLINK_WriteReg(CFBP, 0x00000000)
T5264 000:877.048 - 0.021ms returns 0
T5264 000:877.065 JLINK_SetBPEx(Addr = 0x20000000, Type = 0xFFFFFFF2)
T5264 000:877.082 - 0.023ms returns 0x00000005
T5264 000:877.096 JLINK_Go()
T5264 000:877.116   CPU_WriteMem(4 bytes @ 0xE0002000)
T5264 000:877.735   CPU_ReadMem(4 bytes @ 0xE0001000)
T5264 000:880.741 - 3.687ms
T5264 000:880.801 JLINK_IsHalted()
T5264 000:881.278 - 0.499ms returns FALSE
T5264 000:881.314 JLINK_HasError()
T5264 000:882.598 JLINK_IsHalted()
T5264 000:883.387 - 0.837ms returns FALSE
T5264 000:883.454 JLINK_HasError()
T5264 000:884.571 JLINK_IsHalted()
T5264 000:885.154 - 0.617ms returns FALSE
T5264 000:885.204 JLINK_HasError()
T5264 000:886.581 JLINK_IsHalted()
T5264 000:887.202 - 0.652ms returns FALSE
T5264 000:887.249 JLINK_HasError()
T5264 000:888.591 JLINK_IsHalted()
T5264 000:889.133 - 0.567ms returns FALSE
T5264 000:889.170 JLINK_HasError()
T5264 000:890.582 JLINK_IsHalted()
T5264 000:891.146 - 0.587ms returns FALSE
T5264 000:891.184 JLINK_HasError()
T5264 000:892.567 JLINK_IsHalted()
T5264 000:893.166 - 0.634ms returns FALSE
T5264 000:893.217 JLINK_HasError()
T5264 000:894.597 JLINK_IsHalted()
T5264 000:895.162 - 0.598ms returns FALSE
T5264 000:895.210 JLINK_HasError()
T5264 000:896.595 JLINK_IsHalted()
T5264 000:898.365 - 1.820ms returns FALSE
T5264 000:898.442 JLINK_HasError()
T5264 000:899.626 JLINK_IsHalted()
T5264 000:900.295 - 0.703ms returns FALSE
T5264 000:900.348 JLINK_HasError()
T5264 000:901.605 JLINK_IsHalted()
T5264 000:902.308 - 0.741ms returns FALSE
T5264 000:902.362 JLINK_HasError()
T5264 000:903.587 JLINK_IsHalted()
T5264 000:904.167 - 0.623ms returns FALSE
T5264 000:904.228 JLINK_HasError()
T5264 000:905.587 JLINK_IsHalted()
T5264 000:906.149 - 0.588ms returns FALSE
T5264 000:906.188 JLINK_HasError()
T5264 000:907.591 JLINK_IsHalted()
T5264 000:908.402 - 0.847ms returns FALSE
T5264 000:908.456 JLINK_HasError()
T5264 000:909.581 JLINK_IsHalted()
T5264 000:910.145 - 0.599ms returns FALSE
T5264 000:910.195 JLINK_HasError()
T5264 000:911.582 JLINK_IsHalted()
T5264 000:912.214 - 0.677ms returns FALSE
T5264 000:912.276 JLINK_HasError()
T5264 000:913.590 JLINK_IsHalted()
T5264 000:914.322 - 0.773ms returns FALSE
T5264 000:914.382 JLINK_HasError()
T5264 000:915.585 JLINK_IsHalted()
T5264 000:916.292 - 0.747ms returns FALSE
T5264 000:916.349 JLINK_HasError()
T5264 000:917.592 JLINK_IsHalted()
T5264 000:918.180 - 0.623ms returns FALSE
T5264 000:918.231 JLINK_HasError()
T5264 000:919.586 JLINK_IsHalted()
T5264 000:920.201 - 0.753ms returns FALSE
T5264 000:920.360 JLINK_HasError()
T5264 000:921.595 JLINK_IsHalted()
T5264 000:925.094 - 3.545ms returns TRUE
T5264 000:925.154 JLINK_ReadReg(R15 (PC))
T5264 000:925.179   CPU_ReadMem(4 bytes @ 0xE000EE08)
T5264 000:925.843 - 0.716ms returns 0x20000000
T5264 000:925.883 JLINK_ClrBPEx(BPHandle = 0x00000005)
T5264 000:925.905 - 0.027ms returns 0x00
T5264 000:925.919 JLINK_ReadReg(R0)
T5264 000:925.934 - 0.021ms returns 0x00000000
T5264 000:927.066 JLINK_HasError()
T5264 000:927.117 JLINK_WriteReg(R0, 0x00004000)
T5264 000:927.147 - 0.035ms returns 0
T5264 000:927.160 JLINK_WriteReg(R1, 0x00002000)
T5264 000:927.173 - 0.018ms returns 0
T5264 000:927.186 JLINK_WriteReg(R2, 0x000000FF)
T5264 000:927.200 - 0.019ms returns 0
T5264 000:927.213 JLINK_WriteReg(R3, 0x00000000)
T5264 000:927.226 - 0.019ms returns 0
T5264 000:927.240 JLINK_WriteReg(R4, 0x00000000)
T5264 000:927.253 - 0.019ms returns 0
T5264 000:927.266 JLINK_WriteReg(R5, 0x00000000)
T5264 000:927.279 - 0.019ms returns 0
T5264 000:927.293 JLINK_WriteReg(R6, 0x00000000)
T5264 000:927.307 - 0.019ms returns 0
T5264 000:927.320 JLINK_WriteReg(R7, 0x00000000)
T5264 000:927.333 - 0.019ms returns 0
T5264 000:927.347 JLINK_WriteReg(R8, 0x00000000)
T5264 000:927.360 - 0.018ms returns 0
T5264 000:927.373 JLINK_WriteReg(R9, 0x20000E64)
T5264 000:927.387 - 0.019ms returns 0
T5264 000:927.399 JLINK_WriteReg(R10, 0x00000000)
T5264 000:927.412 - 0.019ms returns 0
T5264 000:927.427 JLINK_WriteReg(R11, 0x00000000)
T5264 000:927.441 - 0.019ms returns 0
T5264 000:927.453 JLINK_WriteReg(R12, 0x00000000)
T5264 000:927.468 - 0.022ms returns 0
T5264 000:927.482 JLINK_WriteReg(R13 (SP), 0x20002000)
T5264 000:927.499 - 0.022ms returns 0
T5264 000:927.514 JLINK_WriteReg(R14, 0x20000001)
T5264 000:927.527 - 0.019ms returns 0
T5264 000:927.539 JLINK_WriteReg(R15 (PC), 0x20000680)
T5264 000:927.553 - 0.023ms returns 0
T5264 000:927.569 JLINK_WriteReg(XPSR, 0x01000000)
T5264 000:927.585 - 0.020ms returns 0
T5264 000:927.600 JLINK_WriteReg(MSP, 0x20002000)
T5264 000:927.617 - 0.024ms returns 0
T5264 000:927.633 JLINK_WriteReg(PSP, 0x20002000)
T5264 000:927.649 - 0.022ms returns 0
T5264 000:927.662 JLINK_WriteReg(CFBP, 0x00000000)
T5264 000:927.676 - 0.018ms returns 0
T5264 000:927.688 JLINK_SetBPEx(Addr = 0x20000000, Type = 0xFFFFFFF2)
T5264 000:927.702 - 0.020ms returns 0x00000006
T5264 000:927.716 JLINK_Go()
T5264 000:927.734   CPU_WriteMem(4 bytes @ 0xE0002000)
T5264 000:928.434   CPU_ReadMem(4 bytes @ 0xE0001000)
T5264 000:931.354 - 3.675ms
T5264 000:931.406 JLINK_IsHalted()
T5264 000:931.903 - 0.526ms returns FALSE
T5264 000:931.944 JLINK_HasError()
T5264 000:933.578 JLINK_IsHalted()
T5264 000:936.568 - 3.027ms returns TRUE
T5264 000:936.620 JLINK_ReadReg(R15 (PC))
T5264 000:936.644   CPU_ReadMem(4 bytes @ 0xE000EE08)
T5264 000:937.265 - 0.684ms returns 0x20000000
T5264 000:937.322 JLINK_ClrBPEx(BPHandle = 0x00000006)
T5264 000:937.344 - 0.027ms returns 0x00
T5264 000:937.358 JLINK_ReadReg(R0)
T5264 000:937.373 - 0.020ms returns 0x00000001
T5264 000:937.386 JLINK_HasError()
T5264 000:937.398 JLINK_WriteReg(R0, 0x00004000)
T5264 000:937.412 - 0.019ms returns 0
T5264 000:937.424 JLINK_WriteReg(R1, 0x00002000)
T5264 000:937.436 - 0.017ms returns 0
T5264 000:937.448 JLINK_WriteReg(R2, 0x000000FF)
T5264 000:937.468 - 0.030ms returns 0
T5264 000:937.485 JLINK_WriteReg(R3, 0x00000000)
T5264 000:937.497 - 0.017ms returns 0
T5264 000:937.512 JLINK_WriteReg(R4, 0x00000000)
T5264 000:937.525 - 0.017ms returns 0
T5264 000:937.536 JLINK_WriteReg(R5, 0x00000000)
T5264 000:937.553 - 0.025ms returns 0
T5264 000:937.568 JLINK_WriteReg(R6, 0x00000000)
T5264 000:937.580 - 0.017ms returns 0
T5264 000:937.592 JLINK_WriteReg(R7, 0x00000000)
T5264 000:937.605 - 0.018ms returns 0
T5264 000:937.618 JLINK_WriteReg(R8, 0x00000000)
T5264 000:937.632 - 0.019ms returns 0
T5264 000:937.645 JLINK_WriteReg(R9, 0x20000E64)
T5264 000:937.659 - 0.020ms returns 0
T5264 000:937.672 JLINK_WriteReg(R10, 0x00000000)
T5264 000:937.686 - 0.019ms returns 0
T5264 000:937.699 JLINK_WriteReg(R11, 0x00000000)
T5264 000:937.713 - 0.019ms returns 0
T5264 000:937.724 JLINK_WriteReg(R12, 0x00000000)
T5264 000:937.736 - 0.017ms returns 0
T5264 000:937.748 JLINK_WriteReg(R13 (SP), 0x20002000)
T5264 000:937.762 - 0.019ms returns 0
T5264 000:937.774 JLINK_WriteReg(R14, 0x20000001)
T5264 000:937.786 - 0.016ms returns 0
T5264 000:937.797 JLINK_WriteReg(R15 (PC), 0x20000A00)
T5264 000:937.809 - 0.016ms returns 0
T5264 000:937.820 JLINK_WriteReg(XPSR, 0x01000000)
T5264 000:937.831 - 0.016ms returns 0
T5264 000:937.842 JLINK_WriteReg(MSP, 0x20002000)
T5264 000:937.854 - 0.016ms returns 0
T5264 000:937.865 JLINK_WriteReg(PSP, 0x20002000)
T5264 000:937.878 - 0.017ms returns 0
T5264 000:937.889 JLINK_WriteReg(CFBP, 0x00000000)
T5264 000:937.901 - 0.016ms returns 0
T5264 000:937.913 JLINK_SetBPEx(Addr = 0x20000000, Type = 0xFFFFFFF2)
T5264 000:937.927 - 0.018ms returns 0x00000007
T5264 000:937.938 JLINK_Go()
T5264 000:937.957   CPU_WriteMem(4 bytes @ 0xE0002000)
T5264 000:938.559   CPU_ReadMem(4 bytes @ 0xE0001000)
T5264 000:941.741 - 3.837ms
T5264 000:941.788 JLINK_IsHalted()
T5264 000:942.266 - 0.495ms returns FALSE
T5264 000:942.295 JLINK_HasError()
T5264 000:943.588 JLINK_IsHalted()
T5264 000:944.147 - 0.590ms returns FALSE
T5264 000:944.195 JLINK_HasError()
T5264 000:945.597 JLINK_IsHalted()
T5264 000:946.346 - 0.791ms returns FALSE
T5264 000:946.413 JLINK_HasError()
T5264 000:947.590 JLINK_IsHalted()
T5264 000:948.291 - 0.732ms returns FALSE
T5264 000:948.337 JLINK_HasError()
T5264 000:949.584 JLINK_IsHalted()
T5264 000:950.152 - 0.591ms returns FALSE
T5264 000:950.192 JLINK_HasError()
T5264 000:951.589 JLINK_IsHalted()
T5264 000:952.185 - 0.616ms returns FALSE
T5264 000:952.215 JLINK_HasError()
T5264 000:955.578 JLINK_IsHalted()
T5264 000:956.141 - 0.580ms returns FALSE
T5264 000:956.170 JLINK_HasError()
T5264 000:957.590 JLINK_IsHalted()
T5264 000:958.143 - 0.572ms returns FALSE
T5264 000:958.175 JLINK_HasError()
T5264 000:959.593 JLINK_IsHalted()
T5264 000:960.244 - 0.675ms returns FALSE
T5264 000:960.282 JLINK_HasError()
T5264 000:961.585 JLINK_IsHalted()
T5264 000:962.152 - 0.585ms returns FALSE
T5264 000:962.182 JLINK_HasError()
T5264 000:963.580 JLINK_IsHalted()
T5264 000:964.157 - 0.592ms returns FALSE
T5264 000:964.183 JLINK_HasError()
T5264 000:965.579 JLINK_IsHalted()
T5264 000:966.145 - 0.582ms returns FALSE
T5264 000:966.176 JLINK_HasError()
T5264 000:967.596 JLINK_IsHalted()
T5264 000:968.152 - 0.576ms returns FALSE
T5264 000:968.188 JLINK_HasError()
T5264 000:969.588 JLINK_IsHalted()
T5264 000:970.156 - 0.585ms returns FALSE
T5264 000:970.184 JLINK_HasError()
T5264 000:971.583 JLINK_IsHalted()
T5264 000:972.148 - 0.584ms returns FALSE
T5264 000:972.182 JLINK_HasError()
T5264 000:973.587 JLINK_IsHalted()
T5264 000:974.148 - 0.582ms returns FALSE
T5264 000:974.185 JLINK_HasError()
T5264 000:975.592 JLINK_IsHalted()
T5264 000:976.159 - 0.588ms returns FALSE
T5264 000:976.194 JLINK_HasError()
T5264 000:977.591 JLINK_IsHalted()
T5264 000:978.161 - 0.598ms returns FALSE
T5264 000:978.201 JLINK_HasError()
T5264 000:979.580 JLINK_IsHalted()
T5264 000:980.159 - 0.608ms returns FALSE
T5264 000:980.203 JLINK_HasError()
T5264 000:981.585 JLINK_IsHalted()
T5264 000:982.152 - 0.605ms returns FALSE
T5264 000:982.210 JLINK_HasError()
T5264 000:983.590 JLINK_IsHalted()
T5264 000:986.579 - 3.046ms returns TRUE
T5264 000:986.652 JLINK_ReadReg(R15 (PC))
T5264 000:986.677   CPU_ReadMem(4 bytes @ 0xE000EE08)
T5264 000:987.270 - 0.644ms returns 0x20000000
T5264 000:987.310 JLINK_ClrBPEx(BPHandle = 0x00000007)
T5264 000:987.330 - 0.026ms returns 0x00
T5264 000:987.344 JLINK_ReadReg(R0)
T5264 000:987.358 - 0.020ms returns 0x00000000
T5264 000:988.355 JLINK_HasError()
T5264 000:988.396 JLINK_WriteReg(R0, 0x00006000)
T5264 000:988.422 - 0.030ms returns 0
T5264 000:988.433 JLINK_WriteReg(R1, 0x00002000)
T5264 000:988.443 - 0.014ms returns 0
T5264 000:988.452 JLINK_WriteReg(R2, 0x000000FF)
T5264 000:988.462 - 0.014ms returns 0
T5264 000:988.472 JLINK_WriteReg(R3, 0x00000000)
T5264 000:988.481 - 0.014ms returns 0
T5264 000:988.491 JLINK_WriteReg(R4, 0x00000000)
T5264 000:988.501 - 0.013ms returns 0
T5264 000:988.510 JLINK_WriteReg(R5, 0x00000000)
T5264 000:988.520 - 0.014ms returns 0
T5264 000:988.529 JLINK_WriteReg(R6, 0x00000000)
T5264 000:988.541 - 0.016ms returns 0
T5264 000:988.553 JLINK_WriteReg(R7, 0x00000000)
T5264 000:988.570 - 0.023ms returns 0
T5264 000:988.616 JLINK_WriteReg(R8, 0x00000000)
T5264 000:988.633 - 0.022ms returns 0
T5264 000:988.645 JLINK_WriteReg(R9, 0x20000E64)
T5264 000:988.658 - 0.018ms returns 0
T5264 000:988.672 JLINK_WriteReg(R10, 0x00000000)
T5264 000:988.684 - 0.018ms returns 0
T5264 000:988.697 JLINK_WriteReg(R11, 0x00000000)
T5264 000:988.709 - 0.019ms returns 0
T5264 000:988.724 JLINK_WriteReg(R12, 0x00000000)
T5264 000:988.738 - 0.019ms returns 0
T5264 000:988.750 JLINK_WriteReg(R13 (SP), 0x20002000)
T5264 000:988.767 - 0.024ms returns 0
T5264 000:988.781 JLINK_WriteReg(R14, 0x20000001)
T5264 000:988.794 - 0.018ms returns 0
T5264 000:988.807 JLINK_WriteReg(R15 (PC), 0x20000680)
T5264 000:988.820 - 0.018ms returns 0
T5264 000:988.832 JLINK_WriteReg(XPSR, 0x01000000)
T5264 000:988.845 - 0.019ms returns 0
T5264 000:988.859 JLINK_WriteReg(MSP, 0x20002000)
T5264 000:988.872 - 0.018ms returns 0
T5264 000:988.884 JLINK_WriteReg(PSP, 0x20002000)
T5264 000:988.897 - 0.018ms returns 0
T5264 000:988.909 JLINK_WriteReg(CFBP, 0x00000000)
T5264 000:988.924 - 0.019ms returns 0
T5264 000:988.936 JLINK_SetBPEx(Addr = 0x20000000, Type = 0xFFFFFFF2)
T5264 000:988.951 - 0.021ms returns 0x00000008
T5264 000:988.964 JLINK_Go()
T5264 000:988.983   CPU_WriteMem(4 bytes @ 0xE0002000)
T5264 000:989.573   CPU_ReadMem(4 bytes @ 0xE0001000)
T5264 000:992.477 - 3.543ms
T5264 000:992.521 JLINK_IsHalted()
T5264 000:992.988 - 0.485ms returns FALSE
T5264 000:993.019 JLINK_HasError()
T5264 000:994.584 JLINK_IsHalted()
T5264 000:997.514 - 2.962ms returns TRUE
T5264 000:997.568 JLINK_ReadReg(R15 (PC))
T5264 000:997.593   CPU_ReadMem(4 bytes @ 0xE000EE08)
T5264 000:998.177 - 0.645ms returns 0x20000000
T5264 000:998.235 JLINK_ClrBPEx(BPHandle = 0x00000008)
T5264 000:998.260 - 0.031ms returns 0x00
T5264 000:998.278 JLINK_ReadReg(R0)
T5264 000:998.296 - 0.026ms returns 0x00000001
T5264 000:998.377 JLINK_HasError()
T5264 000:998.394 JLINK_WriteReg(R0, 0x00006000)
T5264 000:998.412 - 0.024ms returns 0
T5264 000:998.428 JLINK_WriteReg(R1, 0x00002000)
T5264 000:998.445 - 0.024ms returns 0
T5264 000:998.461 JLINK_WriteReg(R2, 0x000000FF)
T5264 000:998.476 - 0.021ms returns 0
T5264 000:998.490 JLINK_WriteReg(R3, 0x00000000)
T5264 000:998.504 - 0.020ms returns 0
T5264 000:998.519 JLINK_WriteReg(R4, 0x00000000)
T5264 000:998.534 - 0.021ms returns 0
T5264 000:998.547 JLINK_WriteReg(R5, 0x00000000)
T5264 000:998.566 - 0.025ms returns 0
T5264 000:998.582 JLINK_WriteReg(R6, 0x00000000)
T5264 000:998.598 - 0.023ms returns 0
T5264 000:998.614 JLINK_WriteReg(R7, 0x00000000)
T5264 000:998.628 - 0.021ms returns 0
T5264 000:998.643 JLINK_WriteReg(R8, 0x00000000)
T5264 000:998.658 - 0.021ms returns 0
T5264 000:998.672 JLINK_WriteReg(R9, 0x20000E64)
T5264 000:998.686 - 0.020ms returns 0
T5264 000:998.700 JLINK_WriteReg(R10, 0x00000000)
T5264 000:998.725 - 0.035ms returns 0
T5264 000:998.744 JLINK_WriteReg(R11, 0x00000000)
T5264 000:998.761 - 0.023ms returns 0
T5264 000:998.777 JLINK_WriteReg(R12, 0x00000000)
T5264 000:998.791 - 0.020ms returns 0
T5264 000:998.806 JLINK_WriteReg(R13 (SP), 0x20002000)
T5264 000:998.823 - 0.022ms returns 0
T5264 000:998.835 JLINK_WriteReg(R14, 0x20000001)
T5264 000:998.846 - 0.017ms returns 0
T5264 000:998.859 JLINK_WriteReg(R15 (PC), 0x20000A00)
T5264 000:998.873 - 0.019ms returns 0
T5264 000:998.885 JLINK_WriteReg(XPSR, 0x01000000)
T5264 000:998.898 - 0.017ms returns 0
T5264 000:998.910 JLINK_WriteReg(MSP, 0x20002000)
T5264 000:998.923 - 0.018ms returns 0
T5264 000:998.936 JLINK_WriteReg(PSP, 0x20002000)
T5264 000:998.947 - 0.016ms returns 0
T5264 000:998.959 JLINK_WriteReg(CFBP, 0x00000000)
T5264 000:998.971 - 0.018ms returns 0
T5264 000:998.985 JLINK_SetBPEx(Addr = 0x20000000, Type = 0xFFFFFFF2)
T5264 000:999.001 - 0.022ms returns 0x00000009
T5264 000:999.015 JLINK_Go()
T5264 000:999.036   CPU_WriteMem(4 bytes @ 0xE0002000)
T5264 000:999.735   CPU_ReadMem(4 bytes @ 0xE0001000)
T5264 001:002.638 - 3.659ms
T5264 001:002.686 JLINK_IsHalted()
T5264 001:003.133 - 0.460ms returns FALSE
T5264 001:003.157 JLINK_HasError()
T5264 001:004.593 JLINK_IsHalted()
T5264 001:005.144 - 0.569ms returns FALSE
T5264 001:005.174 JLINK_HasError()
T5264 001:006.592 JLINK_IsHalted()
T5264 001:007.153 - 0.583ms returns FALSE
T5264 001:007.189 JLINK_HasError()
T5264 001:008.591 JLINK_IsHalted()
T5264 001:009.148 - 0.573ms returns FALSE
T5264 001:009.176 JLINK_HasError()
T5264 001:010.600 JLINK_IsHalted()
T5264 001:011.139 - 0.558ms returns FALSE
T5264 001:011.171 JLINK_HasError()
T5264 001:012.591 JLINK_IsHalted()
T5264 001:013.174 - 0.620ms returns FALSE
T5264 001:013.225 JLINK_HasError()
T5264 001:014.608 JLINK_IsHalted()
T5264 001:015.156 - 0.578ms returns FALSE
T5264 001:015.202 JLINK_HasError()
T5264 001:016.605 JLINK_IsHalted()
T5264 001:017.308 - 0.743ms returns FALSE
T5264 001:017.365 JLINK_HasError()
T5264 001:018.586 JLINK_IsHalted()
T5264 001:019.144 - 0.577ms returns FALSE
T5264 001:019.175 JLINK_HasError()
T5264 001:020.591 JLINK_IsHalted()
T5264 001:021.154 - 0.587ms returns FALSE
T5264 001:021.191 JLINK_HasError()
T5264 001:022.587 JLINK_IsHalted()
T5264 001:023.158 - 0.593ms returns FALSE
T5264 001:023.198 JLINK_HasError()
T5264 001:024.605 JLINK_IsHalted()
T5264 001:025.170 - 0.594ms returns FALSE
T5264 001:025.213 JLINK_HasError()
T5264 001:026.594 JLINK_IsHalted()
T5264 001:027.166 - 0.599ms returns FALSE
T5264 001:027.213 JLINK_HasError()
T5264 001:028.597 JLINK_IsHalted()
T5264 001:029.152 - 0.578ms returns FALSE
T5264 001:029.190 JLINK_HasError()
T5264 001:030.592 JLINK_IsHalted()
T5264 001:031.147 - 0.572ms returns FALSE
T5264 001:031.178 JLINK_HasError()
T5264 001:032.635 JLINK_IsHalted()
T5264 001:033.274 - 0.663ms returns FALSE
T5264 001:033.309 JLINK_HasError()
T5264 001:034.589 JLINK_IsHalted()
T5264 001:035.145 - 0.574ms returns FALSE
T5264 001:035.176 JLINK_HasError()
T5264 001:036.610 JLINK_IsHalted()
T5264 001:037.333 - 0.760ms returns FALSE
T5264 001:037.386 JLINK_HasError()
T5264 001:038.587 JLINK_IsHalted()
T5264 001:039.144 - 0.577ms returns FALSE
T5264 001:039.176 JLINK_HasError()
T5264 001:040.591 JLINK_IsHalted()
T5264 001:041.134 - 0.557ms returns FALSE
T5264 001:041.158 JLINK_HasError()
T5264 001:042.588 JLINK_IsHalted()
T5264 001:043.143 - 0.568ms returns FALSE
T5264 001:043.166 JLINK_HasError()
T5264 001:044.595 JLINK_IsHalted()
T5264 001:047.568 - 3.021ms returns TRUE
T5264 001:047.633 JLINK_ReadReg(R15 (PC))
T5264 001:047.659   CPU_ReadMem(4 bytes @ 0xE000EE08)
T5264 001:048.155 - 0.547ms returns 0x20000000
T5264 001:048.196 JLINK_ClrBPEx(BPHandle = 0x00000009)
T5264 001:048.215 - 0.023ms returns 0x00
T5264 001:048.226 JLINK_ReadReg(R0)
T5264 001:048.239 - 0.019ms returns 0x00000000
T5264 001:058.854 JLINK_HasError()
T5264 001:058.914 JLINK_WriteReg(R0, 0x00000001)
T5264 001:058.946 - 0.040ms returns 0
T5264 001:058.970 JLINK_WriteReg(R1, 0x00002000)
T5264 001:058.988 - 0.023ms returns 0
T5264 001:059.001 JLINK_WriteReg(R2, 0x000000FF)
T5264 001:059.014 - 0.018ms returns 0
T5264 001:059.026 JLINK_WriteReg(R3, 0x00000000)
T5264 001:059.038 - 0.017ms returns 0
T5264 001:059.050 JLINK_WriteReg(R4, 0x00000000)
T5264 001:059.061 - 0.016ms returns 0
T5264 001:059.072 JLINK_WriteReg(R5, 0x00000000)
T5264 001:059.088 - 0.021ms returns 0
T5264 001:059.100 JLINK_WriteReg(R6, 0x00000000)
T5264 001:059.112 - 0.016ms returns 0
T5264 001:059.124 JLINK_WriteReg(R7, 0x00000000)
T5264 001:059.136 - 0.017ms returns 0
T5264 001:059.148 JLINK_WriteReg(R8, 0x00000000)
T5264 001:059.161 - 0.019ms returns 0
T5264 001:059.174 JLINK_WriteReg(R9, 0x20000E64)
T5264 001:059.186 - 0.016ms returns 0
T5264 001:059.197 JLINK_WriteReg(R10, 0x00000000)
T5264 001:059.208 - 0.016ms returns 0
T5264 001:059.220 JLINK_WriteReg(R11, 0x00000000)
T5264 001:059.231 - 0.016ms returns 0
T5264 001:059.242 JLINK_WriteReg(R12, 0x00000000)
T5264 001:059.253 - 0.015ms returns 0
T5264 001:059.264 JLINK_WriteReg(R13 (SP), 0x20002000)
T5264 001:059.278 - 0.019ms returns 0
T5264 001:059.289 JLINK_WriteReg(R14, 0x20000001)
T5264 001:059.300 - 0.016ms returns 0
T5264 001:059.312 JLINK_WriteReg(R15 (PC), 0x200005BC)
T5264 001:059.323 - 0.016ms returns 0
T5264 001:059.334 JLINK_WriteReg(XPSR, 0x01000000)
T5264 001:059.346 - 0.016ms returns 0
T5264 001:059.357 JLINK_WriteReg(MSP, 0x20002000)
T5264 001:059.369 - 0.017ms returns 0
T5264 001:059.380 JLINK_WriteReg(PSP, 0x20002000)
T5264 001:059.392 - 0.016ms returns 0
T5264 001:059.403 JLINK_WriteReg(CFBP, 0x00000000)
T5264 001:059.415 - 0.017ms returns 0
T5264 001:059.428 JLINK_SetBPEx(Addr = 0x20000000, Type = 0xFFFFFFF2)
T5264 001:059.441 - 0.018ms returns 0x0000000A
T5264 001:059.453 JLINK_Go()
T5264 001:059.473   CPU_WriteMem(4 bytes @ 0xE0002000)
